name,type,start_time,duration,"value"
"SMBus","v1frame",3.209666125,0.0000045,""
"SMBus","v1frame",3.209681625,0.000605125,"Write address \x0B ACK Protocol=Process call"
"SMBus","v1frame",3.21028675,0.000642,"Command \xD1"
"SMBus","v1frame",3.2109535,0.000597875,"Byte count \x04"
"SMBus","v1frame",3.211577,0.00060325,"Byte \0 ACK"
"SMBus","v1frame",3.212204875,0.000603375,"Byte \0 ACK"
"SMBus","v1frame",3.2128325,0.000598,"Byte \x01 ACK"
"SMBus","v1frame",3.2134305,0.000642375,"Byte \xAA ACK"
"SMBus","v1frame",3.214072875,0.00064525,"PEC \xF7 OK"
"SMBus","v1frame",3.2147705,0.0000685,""
"SMBus","v1frame",3.3097195,0.0000045,""
"SMBus","v1frame",3.309735,0.000604875,"Write address \x0B ACK Protocol=Block write"
"SMBus","v1frame",3.310339875,0.0006315,"Command \xA4"
"SMBus","v1frame",3.311068125,0.000637375,"Read address \x0B ACK Protocol=Block write"
"SMBus","v1frame",3.3117055,0.000585625,"Byte count \x04"
"SMBus","v1frame",3.312291125,0.000622875,"Byte \0 ACK"
"SMBus","v1frame",3.312914,0.000614,"Byte \0 ACK"
"SMBus","v1frame",3.313528,0.000623,"Byte \0 ACK"
"SMBus","v1frame",3.314151,0.000635875,"Byte \n ACK"
"SMBus","v1frame",3.314786875,0.000591625,"PEC \xFB OK"
"SMBus","v1frame",3.315414125,0.00005075,""
"SMBus","v1frame",3.315586625,0.0000045,""
"SMBus","v1frame",3.315602,0.000613875,"Write address \x0B ACK Protocol=Read word"
"SMBus","v1frame",3.31623325,0.000621,"Command z"
"SMBus","v1frame",3.31695175,0.000628125,"Read address \x0B ACK Protocol=Read word"
"SMBus","v1frame",3.317579875,0.00121775,"Word \0 ACK"
"SMBus","v1frame",3.318797625,0.000605125,"PEC c OK"
"SMBus","v1frame",3.31943825,0.0000505,""
"SMBus","v1frame",3.519713625,0.0000045,""
"SMBus","v1frame",3.519729125,0.000605125,"Write address \x0B ACK Protocol=Block write"
"SMBus","v1frame",3.52033425,0.00063125,"Command \xA4"
"SMBus","v1frame",3.52106225,0.00063775,"Read address \x0B ACK Protocol=Block write"
"SMBus","v1frame",3.5217,0.00058525,"Byte count \x04"
"SMBus","v1frame",3.52228525,0.000622875,"Byte \0 ACK"
"SMBus","v1frame",3.522908125,0.000614125,"Byte \0 ACK"
"SMBus","v1frame",3.52352225,0.000622875,"Byte \0 ACK"
"SMBus","v1frame",3.524145125,0.000623125,"Byte X ACK"
"SMBus","v1frame",3.52476825,0.00060525,"PEC B OK"
"SMBus","v1frame",3.525409125,0.00005025,""
"SMBus","v1frame",3.525581375,0.0000045,""
"SMBus","v1frame",3.525596875,0.00061375,"Write address \x0B ACK Protocol=Read word"
"SMBus","v1frame",3.526228,0.000621125,"Command z"
"SMBus","v1frame",3.526946375,0.00062825,"Read address \x0B ACK Protocol=Read word"
"SMBus","v1frame",3.527574625,0.00121775,"Word \0 ACK"
"SMBus","v1frame",3.528792375,0.000605125,"PEC c OK"
"SMBus","v1frame",3.529433,0.00005075,""
"SMBus","v1frame",3.729805875,0.0000045,""
"SMBus","v1frame",3.729821375,0.000605,"Write address \x0B ACK Protocol=Block write"
"SMBus","v1frame",3.730426375,0.0006315,"Command \xA4"
"SMBus","v1frame",3.7311545,0.000637875,"Read address \x0B ACK Protocol=Block write"
"SMBus","v1frame",3.731792375,0.00058525,"Byte count \x04"
"SMBus","v1frame",3.732377625,0.000622875,"Byte \0 ACK"
"SMBus","v1frame",3.7330005,0.000614,"Byte \0 ACK"
"SMBus","v1frame",3.7336145,0.00063625,"Byte \0 ACK"
"SMBus","v1frame",3.73425075,0.00062325,"Byte \xB2 ACK"
"SMBus","v1frame",3.734874,0.00059175,"PEC \xDA OK"
"SMBus","v1frame",3.73550125,0.0000505,""
"SMBus","v1frame",3.7356825,0.0000045,""
"SMBus","v1frame",3.735698,0.000605,"Write address \x0B ACK Protocol=Read word"
"SMBus","v1frame",3.73632025,0.000621125,"Command z"
"SMBus","v1frame",3.7370385,0.0006285,"Read address \x0B ACK Protocol=Read word"
"SMBus","v1frame",3.737667,0.0012305,"Word @ ACK"
"SMBus","v1frame",3.7388975,0.00059175,"PEC \xA4 OK"
"SMBus","v1frame",3.73952475,0.0000505,""
"SMBus","v1frame",3.939861125,0.0000045,""
"SMBus","v1frame",3.939876625,0.000604875,"Write address \x0B ACK Protocol=Block write"
"SMBus","v1frame",3.9404815,0.000631375,"Command \xA4"
"SMBus","v1frame",3.941209875,0.000637625,"Read address \x0B ACK Protocol=Block write"
"SMBus","v1frame",3.9418475,0.000585375,"Byte count \x04"
"SMBus","v1frame",3.942432875,0.000622875,"Byte \0 ACK"
"SMBus","v1frame",3.94305575,0.00061825,"Byte \0 ACK"
"SMBus","v1frame",3.943674,0.000618375,"Byte \x01 ACK"
"SMBus","v1frame",3.944292375,0.00063625,"Byte \x0F ACK"
"SMBus","v1frame",3.944928625,0.000591875,"PEC \xF5 OK"
"SMBus","v1frame",3.945556125,0.00005,""
"SMBus","v1frame",3.945737125,0.0000045,""
"SMBus","v1frame",3.945752625,0.00060475,"Write address \x0B ACK Protocol=Read word"
"SMBus","v1frame",3.946374875,0.000621,"Command z"
"SMBus","v1frame",3.947094,0.0006365,"Read address \x0B ACK Protocol=Read word"
"SMBus","v1frame",3.9477305,0.0012215,"Word @ ACK"
"SMBus","v1frame",3.948952,0.000591875,"PEC \xA4 OK"
"SMBus","v1frame",3.9495795,0.00005025,""
"SMBus","v1frame",4.14991975,0.0000045,""
"SMBus","v1frame",4.14993525,0.000605,"Write address \x0B ACK Protocol=Block write"
"SMBus","v1frame",4.15054025,0.0006315,"Command \xA4"
"SMBus","v1frame",4.151268375,0.00058825,"Read address \x0B ACK Protocol=Block write"
"SMBus","v1frame",4.151856625,0.00058525,"Byte count \x04"
"SMBus","v1frame",4.152441875,0.00062275,"Byte \0 ACK"
"SMBus","v1frame",4.153064625,0.0006185,"Byte \0 ACK"
"SMBus","v1frame",4.153683125,0.00061825,"Byte \x01 ACK"
"SMBus","v1frame",4.154301375,0.000635625,"Byte m ACK"
"SMBus","v1frame",4.154937,0.00059175,"PEC \xDC OK"
"SMBus","v1frame",4.155564375,0.00005025,""
"SMBus","v1frame",4.155745,0.0000045,""
"SMBus","v1frame",4.1557605,0.000604875,"Write address \x0B ACK Protocol=Read word"
"SMBus","v1frame",4.15638275,0.000621125,"Command z"
"SMBus","v1frame",4.157101125,0.000637,"Read address \x0B ACK Protocol=Read word"
"SMBus","v1frame",4.157738125,0.001228,"Word @ ACK"
"SMBus","v1frame",4.158966125,0.0005855,"PEC \xA4 OK"
"SMBus","v1frame",4.15958725,0.0000505,""
"SMBus","v1frame",4.359762,0.0000045,""
"SMBus","v1frame",4.3597775,0.000605125,"Write address \x0B ACK Protocol=Block write"
"SMBus","v1frame",4.360382625,0.0006315,"Command \xA4"
"SMBus","v1frame",4.36111075,0.00063775,"Read address \x0B ACK Protocol=Block write"
"SMBus","v1frame",4.3617485,0.000585375,"Byte count \x04"
"SMBus","v1frame",4.362333875,0.00062275,"Byte \0 ACK"
"SMBus","v1frame",4.362956625,0.000614,"Byte \0 ACK"
"SMBus","v1frame",4.363570625,0.000636125,"Byte \x01 ACK"
"SMBus","v1frame",4.36420675,0.000621875,"Byte \xAB ACK"
"SMBus","v1frame",4.364828625,0.00059175,"PEC \x80 OK"
"SMBus","v1frame",4.365456,0.00005025,""
"SMBus","v1frame",4.36562825,0.0000045,""
"SMBus","v1frame",4.36564375,0.000614,"Write address \x0B ACK Protocol=Read word"
"SMBus","v1frame",4.366274875,0.00062125,"Command z"
"SMBus","v1frame",4.366993375,0.000628125,"Read address \x0B ACK Protocol=Read word"
"SMBus","v1frame",4.3676215,0.001230625,"Word @ ACK"
"SMBus","v1frame",4.368852125,0.00059175,"PEC \xA4 OK"
"SMBus","v1frame",4.369479625,0.00005025,""
"SMBus","v1frame",4.56975575,0.00000425,""
"SMBus","v1frame",4.569771,0.00060525,"Write address \x0B ACK Protocol=Block write"
"SMBus","v1frame",4.57037625,0.000631375,"Command \xA4"
"SMBus","v1frame",4.571104375,0.000637625,"Read address \x0B ACK Protocol=Block write"
"SMBus","v1frame",4.571742,0.000585375,"Byte count \x04"
"SMBus","v1frame",4.572327375,0.00062275,"Byte \0 ACK"
"SMBus","v1frame",4.572950125,0.000614,"Byte \0 ACK"
"SMBus","v1frame",4.573564125,0.000636125,"Byte \x01 ACK"
"SMBus","v1frame",4.57420025,0.000621875,"Byte \xAB ACK"
"SMBus","v1frame",4.574822125,0.00059175,"PEC \x80 OK"
"SMBus","v1frame",4.5754495,0.0000505,""
"SMBus","v1frame",4.57562175,0.0000045,""
"SMBus","v1frame",4.57563725,0.000613875,"Write address \x0B ACK Protocol=Read word"
"SMBus","v1frame",4.576268375,0.00062125,"Command z"
"SMBus","v1frame",4.57698675,0.000628375,"Read address \x0B ACK Protocol=Read word"
"SMBus","v1frame",4.577615125,0.0012305,"Word @ ACK"
"SMBus","v1frame",4.578845625,0.00059175,"PEC \xA4 OK"
"SMBus","v1frame",4.579473,0.00005025,""
"SMBus","v1frame",4.77992325,0.0000045,""
"SMBus","v1frame",4.77993875,0.000605125,"Write address \x0B ACK Protocol=Block write"
"SMBus","v1frame",4.780543875,0.0006315,"Command \xA4"
"SMBus","v1frame",4.781272125,0.00064,"Read address \x0B ACK Protocol=Block write"
"SMBus","v1frame",4.781912125,0.000582875,"Byte count \x04"
"SMBus","v1frame",4.782495,0.000622875,"Byte \0 ACK"
"SMBus","v1frame",4.783117875,0.00062275,"Byte \0 ACK"
"SMBus","v1frame",4.783740625,0.000627375,"Byte \x01 ACK"
"SMBus","v1frame",4.784368,0.000621875,"Byte \xAB ACK"
"SMBus","v1frame",4.784989875,0.000591875,"PEC \x80 OK"
"SMBus","v1frame",4.785617375,0.00005,""
"SMBus","v1frame",4.7857985,0.00000425,""
"SMBus","v1frame",4.78581375,0.00060525,"Write address \x0B ACK Protocol=Read word"
"SMBus","v1frame",4.786436125,0.00062125,"Command z"
"SMBus","v1frame",4.7871545,0.0006395,"Read address \x0B ACK Protocol=Read word"
"SMBus","v1frame",4.787794,0.0012055,"Word \x01\xC0 ACK"
"SMBus","v1frame",4.7889995,0.00060475,"PEC 8 OK"
"SMBus","v1frame",4.789639875,0.00005025,""
"SMBus","v1frame",4.789735,0.0000045,""
"SMBus","v1frame",4.7897505,0.000605125,"Write address \x0B ACK Protocol=Read word"
"SMBus","v1frame",4.790355625,0.000635875,"Command \x8B"
"SMBus","v1frame",4.791088375,0.000847625,"Read address \x0B ACK Protocol=Read word"
"SMBus","v1frame",4.791936,0.001445875,"Word p' ACK"
"SMBus","v1frame",4.793381875,0.00061425,"PEC ! OK"
"SMBus","v1frame",4.79403175,0.00005025,""
"SMBus","v1frame",7.215658875,0.0000045,""
"SMBus","v1frame",7.215674375,0.000605125,"Write address \x0B ACK Protocol=Process call"
"SMBus","v1frame",7.2162795,0.000641875,"Command \xD1"
"SMBus","v1frame",7.21694625,0.00060675,"Byte count \x04"
"SMBus","v1frame",7.217553,0.000647375,"Byte \xFF ACK"
"SMBus","v1frame",7.218200375,0.000657125,"Byte \xFF ACK"
"SMBus","v1frame",7.2188575,0.0006535,"Byte \xFE ACK"
"SMBus","v1frame",7.219511,0.00063775,"Byte \xE6 ACK"
"SMBus","v1frame",7.220168375,0.000615,"PEC 9 OK"
"SMBus","v1frame",7.22082575,0.00004875,""
"SMBus","v1frame",7.325540125,0.0000045,""
"SMBus","v1frame",7.325555625,0.000605125,"Write address \x0B ACK Protocol=Block write"
"SMBus","v1frame",7.32616075,0.000631375,"Command \xA4"
"SMBus","v1frame",7.326888875,0.000637375,"Read address \x0B ACK Protocol=Block write"
"SMBus","v1frame",7.32752625,0.000585625,"Byte count \x04"
"SMBus","v1frame",7.328111875,0.00062275,"Byte \0 ACK"
"SMBus","v1frame",7.328734625,0.0006185,"Byte \0 ACK"
"SMBus","v1frame",7.329353125,0.000631625,"Byte \x01 ACK"
"SMBus","v1frame",7.32998475,0.00060975,"Byte \x97 ACK"
"SMBus","v1frame",7.3305945,0.000605375,"PEC 4 OK"
"SMBus","v1frame",7.3312355,0.00005,""
"SMBus","v1frame",7.331416875,0.0000045,""
"SMBus","v1frame",7.331432375,0.000605,"Write address \x0B ACK Protocol=Read word"
"SMBus","v1frame",7.332054625,0.000621125,"Command z"
"SMBus","v1frame",7.332773,0.000637,"Read address \x0B ACK Protocol=Read word"
"SMBus","v1frame",7.33341,0.001209,"Word \0 ACK"
"SMBus","v1frame",7.334619,0.00060525,"PEC c OK"
"SMBus","v1frame",7.33525975,0.0000505,""
"SMBus","v1frame",7.535557875,0.0000045,""
"SMBus","v1frame",7.535573375,0.000605125,"Write address \x0B ACK Protocol=Block write"
"SMBus","v1frame",7.5361785,0.000631375,"Command \xA4"
"SMBus","v1frame",7.536906625,0.000637375,"Read address \x0B ACK Protocol=Block write"
"SMBus","v1frame",7.537544,0.000585625,"Byte count \x04"
"SMBus","v1frame",7.538129625,0.000622875,"Byte \0 ACK"
"SMBus","v1frame",7.5387525,0.00062275,"Byte \0 ACK"
"SMBus","v1frame",7.53937525,0.000614,"Byte \x01 ACK"
"SMBus","v1frame",7.53998925,0.000623125,"Byte R ACK"
"SMBus","v1frame",7.540612375,0.000605375,"PEC a OK"
"SMBus","v1frame",7.541253375,0.0000505,""
"SMBus","v1frame",7.5414345,0.0000045,""
"SMBus","v1frame",7.54145,0.000605125,"Write address \x0B ACK Protocol=Read word"
"SMBus","v1frame",7.54207225,0.000621125,"Command z"
"SMBus","v1frame",7.542790875,0.000636625,"Read address \x0B ACK Protocol=Read word"
"SMBus","v1frame",7.5434275,0.001222,"Word @ ACK"
"SMBus","v1frame",7.5446495,0.00059175,"PEC \xA4 OK"
"SMBus","v1frame",7.545276875,0.00005025,""
"SMBus","v1frame",7.745492875,0.0000045,""
"SMBus","v1frame",7.745508375,0.000605125,"Write address \x0B ACK Protocol=Block write"
"SMBus","v1frame",7.7461135,0.0006315,"Command \xA4"
"SMBus","v1frame",7.746841625,0.0006375,"Read address \x0B ACK Protocol=Block write"
"SMBus","v1frame",7.747479125,0.0005855,"Byte count \x04"
"SMBus","v1frame",7.748064625,0.000622875,"Byte \0 ACK"
"SMBus","v1frame",7.7486875,0.000614,"Byte \0 ACK"
"SMBus","v1frame",7.7493015,0.000622875,"Byte \x01 ACK"
"SMBus","v1frame",7.749924375,0.000636625,"Byte \x17 ACK"
"SMBus","v1frame",7.750561,0.000591875,"PEC \xBD OK"
"SMBus","v1frame",7.7511885,0.00005025,""
"SMBus","v1frame",7.75137,0.0000045,""
"SMBus","v1frame",7.7513855,0.000605,"Write address \x0B ACK Protocol=Read word"
"SMBus","v1frame",7.75200775,0.000621125,"Command z"
"SMBus","v1frame",7.75272625,0.000628,"Read address \x0B ACK Protocol=Read word"
"SMBus","v1frame",7.75335425,0.001230625,"Word @ ACK"
"SMBus","v1frame",7.754584875,0.00059175,"PEC \xA4 OK"
"SMBus","v1frame",7.75521225,0.0000505,""
"SMBus","v1frame",7.955498125,0.0000045,""
"SMBus","v1frame",7.955513625,0.000605,"Write address \x0B ACK Protocol=Block write"
"SMBus","v1frame",7.956118625,0.000631375,"Command \xA4"
"SMBus","v1frame",7.956847,0.00063725,"Read address \x0B ACK Protocol=Block write"
"SMBus","v1frame",7.95748425,0.000585625,"Byte count \x04"
"SMBus","v1frame",7.958069875,0.00062275,"Byte \0 ACK"
"SMBus","v1frame",7.958692625,0.000614,"Byte \0 ACK"
"SMBus","v1frame",7.959306625,0.000636375,"Byte \0 ACK"
"SMBus","v1frame",7.959943,0.000609625,"Byte \xE4 ACK"
"SMBus","v1frame",7.960552625,0.000605125,"PEC \x7F OK"
"SMBus","v1frame",7.961193375,0.00005,""
"SMBus","v1frame",7.96137475,0.0000045,""
"SMBus","v1frame",7.96139025,0.000605125,"Write address \x0B ACK Protocol=Read word"
"SMBus","v1frame",7.962012625,0.000621125,"Command z"
"SMBus","v1frame",7.962731,0.000628125,"Read address \x0B ACK Protocol=Read word"
"SMBus","v1frame",7.963359125,0.001230625,"Word @ ACK"
"SMBus","v1frame",7.96458975,0.00059175,"PEC \xA4 OK"
"SMBus","v1frame",7.965217125,0.0000505,""
"SMBus","v1frame",8.16558175,0.0000045,""
"SMBus","v1frame",8.16559725,0.000605125,"Write address \x0B ACK Protocol=Block write"
"SMBus","v1frame",8.166202375,0.0006315,"Command \xA4"
"SMBus","v1frame",8.1669305,0.000637375,"Read address \x0B ACK Protocol=Block write"
"SMBus","v1frame",8.167567875,0.000585625,"Byte count \x04"
"SMBus","v1frame",8.1681535,0.000573125,"Byte \0 ACK"
"SMBus","v1frame",8.168726625,0.00061425,"Byte \0 ACK"
"SMBus","v1frame",8.169340875,0.000636125,"Byte \0 ACK"
"SMBus","v1frame",8.169977,0.00062325,"Byte \xB1 ACK"
"SMBus","v1frame",8.17060025,0.00059175,"PEC \xD3 OK"
"SMBus","v1frame",8.171227625,0.00005025,""
"SMBus","v1frame",8.171408625,0.0000045,""
"SMBus","v1frame",8.171424125,0.000605125,"Write address \x0B ACK Protocol=Read word"
"SMBus","v1frame",8.172046375,0.000621125,"Command z"
"SMBus","v1frame",8.172765,0.00064475,"Read address \x0B ACK Protocol=Read word"
"SMBus","v1frame",8.17340975,0.001263625,"Word @ ACK"
"SMBus","v1frame",8.174673375,0.000591625,"PEC \xA4 OK"
"SMBus","v1frame",8.175300625,0.0000505,""
"SMBus","v1frame",8.375583875,0.0000045,""
"SMBus","v1frame",8.375599375,0.000605125,"Write address \x0B ACK Protocol=Block write"
"SMBus","v1frame",8.3762045,0.000631375,"Command \xA4"
"SMBus","v1frame",8.37693275,0.0006375,"Read address \x0B ACK Protocol=Block write"
"SMBus","v1frame",8.37757025,0.0005855,"Byte count \x04"
"SMBus","v1frame",8.37815575,0.00062275,"Byte \0 ACK"
"SMBus","v1frame",8.3787785,0.000618375,"Byte \0 ACK"
"SMBus","v1frame",8.379396875,0.000632125,"Byte \0 ACK"
"SMBus","v1frame",8.380029,0.00060925,"Byte \x8E ACK"
"SMBus","v1frame",8.38063825,0.000605,"PEC n OK"
"SMBus","v1frame",8.381278875,0.00005025,""
"SMBus","v1frame",8.381460375,0.0000045,""
"SMBus","v1frame",8.381475875,0.000605125,"Write address \x0B ACK Protocol=Read word"
"SMBus","v1frame",8.382098125,0.000621125,"Command z"
"SMBus","v1frame",8.382816625,0.00063675,"Read address \x0B ACK Protocol=Read word"
"SMBus","v1frame",8.383453375,0.001222,"Word @ ACK"
"SMBus","v1frame",8.384675375,0.00059175,"PEC \xA4 OK"
"SMBus","v1frame",8.38530275,0.00005025,""
"SMBus","v1frame",8.585480625,0.0000045,""
"SMBus","v1frame",8.585496125,0.000605125,"Write address \x0B ACK Protocol=Block write"
"SMBus","v1frame",8.58610125,0.000631375,"Command \xA4"
"SMBus","v1frame",8.5868295,0.000637375,"Read address \x0B ACK Protocol=Block write"
"SMBus","v1frame",8.587466875,0.0005855,"Byte count \x04"
"SMBus","v1frame",8.588052375,0.000622875,"Byte \0 ACK"
"SMBus","v1frame",8.58867525,0.000614,"Byte \0 ACK"
"SMBus","v1frame",8.58928925,0.000636375,"Byte \0 ACK"
"SMBus","v1frame",8.589925625,0.000609375,"Byte \x8E ACK"
"SMBus","v1frame",8.590535,0.000605,"PEC n OK"
"SMBus","v1frame",8.591175625,0.00005025,""
"SMBus","v1frame",8.59134825,0.0000045,""
"SMBus","v1frame",8.59136375,0.000613875,"Write address \x0B ACK Protocol=Read word"
"SMBus","v1frame",8.59199475,0.00062125,"Command z"
"SMBus","v1frame",8.59271325,0.000628125,"Read address \x0B ACK Protocol=Read word"
"SMBus","v1frame",8.593341375,0.00123075,"Word @ ACK"
"SMBus","v1frame",8.594572125,0.000591625,"PEC \xA4 OK"
"SMBus","v1frame",8.595199375,0.0000505,""
"SMBus","v1frame",8.795567625,0.0000045,""
"SMBus","v1frame",8.795583125,0.00060525,"Write address \x0B ACK Protocol=Block write"
"SMBus","v1frame",8.796188375,0.000631375,"Command \xA4"
"SMBus","v1frame",8.796916375,0.000640125,"Read address \x0B ACK Protocol=Block write"
"SMBus","v1frame",8.7975565,0.000583,"Byte count \x04"
"SMBus","v1frame",8.7981395,0.00062275,"Byte \0 ACK"
"SMBus","v1frame",8.79876225,0.000618375,"Byte \0 ACK"
"SMBus","v1frame",8.799380625,0.000632125,"Byte \0 ACK"
"SMBus","v1frame",8.80001275,0.000609375,"Byte \x8E ACK"
"SMBus","v1frame",8.800622125,0.00060475,"PEC n OK"
"SMBus","v1frame",8.8012625,0.0000505,""
"SMBus","v1frame",8.801444125,0.0000045,""
"SMBus","v1frame",8.801459625,0.00060525,"Write address \x0B ACK Protocol=Read word"
"SMBus","v1frame",8.802081875,0.00062125,"Command z"
"SMBus","v1frame",8.802800375,0.000639375,"Read address \x0B ACK Protocol=Read word"
"SMBus","v1frame",8.80343975,0.001205625,"Word \x01\xC0 ACK"
"SMBus","v1frame",8.804645375,0.000604625,"PEC 8 OK"
"SMBus","v1frame",8.805285625,0.00005025,""
"SMBus","v1frame",8.805368375,0.00000425,""
"SMBus","v1frame",8.805383625,0.000617875,"Write address \x0B ACK Protocol=Read word"
"SMBus","v1frame",8.8060015,0.000635875,"Command \x8B"
"SMBus","v1frame",8.806734,0.00084775,"Read address \x0B ACK Protocol=Read word"
"SMBus","v1frame",8.80758175,0.00144425,"Word \x18' ACK"
"SMBus","v1frame",8.809026,0.00061375,"PEC | OK"
"SMBus","v1frame",8.809675375,0.00005025,""
"SMBus","v1frame",10.56430775,0.0000045,""
"SMBus","v1frame",10.56432325,0.0005645,"Write address \x0B ACK Protocol=Process call"
"SMBus","v1frame",10.56488775,0.000595875,"Command \xD1"
"SMBus","v1frame",10.56550825,0.000597875,"Byte count \x04"
"SMBus","v1frame",10.56613175,0.0006035,"Byte \0 ACK"
"SMBus","v1frame",10.56675975,0.0005945,"Byte \0 ACK"
"SMBus","v1frame",10.567378875,0.00060325,"Byte \0 ACK"
"SMBus","v1frame",10.568007625,0.000607,"Byte \x01 ACK"
"SMBus","v1frame",10.568614625,0.000629,"PEC \xBA OK"
"SMBus","v1frame",10.569285875,0.000049,""
"SMBus","v1frame",10.76554425,0.00000425,""
"SMBus","v1frame",10.7655595,0.000605,"Write address \x0B ACK Protocol=Block write"
"SMBus","v1frame",10.7661645,0.0006315,"Command \xA4"
"SMBus","v1frame",10.76689325,0.00063725,"Read address \x0B ACK Protocol=Block write"
"SMBus","v1frame",10.7675305,0.00058525,"Byte count \x04"
"SMBus","v1frame",10.76811575,0.000622875,"Byte \0 ACK"
"SMBus","v1frame",10.768738625,0.000614,"Byte \0 ACK"
"SMBus","v1frame",10.769352625,0.000636375,"Byte \0 ACK"
"SMBus","v1frame",10.769989,0.0006235,"Byte \xC3 ACK"
